T37AC 13154:095 SEGGER J-Link V6.46 Log File (0000ms, 38102ms total)
T37AC 13154:095 DLL Compiled: May 23 2019 17:49:56 (0000ms, 38102ms total)
T37AC 13154:095 Logging started @ 2021-12-24 20:49 (0000ms, 38102ms total)
T37AC 13154:095 JLINK_SetWarnOutHandler(...) (0000ms, 38102ms total)
T37AC 13154:095 JLINK_OpenEx(...)
Firmware: J-Link V9 compiled Dec 13 2019 11:14:50
Hardware: V9.70
S/N: 59768872
Feature(s): RDI, GDB, FlashDL, FlashBP, JFlash
TELNET listener socket opened on port 19021Device "CORTEX-M4" selected.WEBSRV 
Starting webserver (0079ms, 38181ms total)
T37AC 13154:095 WEBSRV Webserver running on local port 19080 (0079ms, 38181ms total)
T37AC 13154:095   returns O.K. (0079ms, 38181ms total)
T37AC 13154:174 JLINK_GetEmuCaps()  returns 0xB9FF7BBF (0000ms, 38181ms total)
T37AC 13154:174 JLINK_TIF_GetAvailable(...) (0000ms, 38181ms total)
T37AC 13154:174 JLINK_SetErrorOutHandler(...) (0000ms, 38181ms total)
T37AC 13154:175 JLINK_ExecCommand("ProjectFile = "C:\Users\xiang\Desktop\use\Super_Capacitor\MDK-ARM\JLinkSettings.ini"", ...). Device "CORTEX-M4" selected.  returns 0x00 (0001ms, 38182ms total)
T37AC 13154:176 JLINK_ExecCommand("Device = STM32G431CBTx", ...). Device "CORTEX-M4" selected.  returns 0x00 (0001ms, 38183ms total)
T37AC 13154:177 JLINK_ExecCommand("DisableConnectionTimeout", ...).   returns 0x01 (0000ms, 38183ms total)
T37AC 13154:177 JLINK_GetHardwareVersion()  returns 0x17AE8 (0000ms, 38183ms total)
T37AC 13154:177 JLINK_GetDLLVersion()  returns 64600 (0000ms, 38183ms total)
T37AC 13154:177 JLINK_GetFirmwareString(...) (0000ms, 38183ms total)
T37AC 13154:177 JLINK_GetDLLVersion()  returns 64600 (0000ms, 38183ms total)
T37AC 13154:177 JLINK_GetCompileDateTime() (0000ms, 38183ms total)
T37AC 13154:177 JLINK_GetFirmwareString(...) (0000ms, 38183ms total)
T37AC 13154:177 JLINK_GetHardwareVersion()  returns 0x17AE8 (0000ms, 38183ms total)
T37AC 13154:177 JLINK_TIF_Select(JLINKARM_TIF_SWD)  returns 0x00 (0001ms, 38184ms total)
T37AC 13154:178 JLINK_SetSpeed(5000) (0000ms, 38184ms total)
T37AC 13154:178 JLINK_GetId() >0x10B TIF>Found SW-DP with ID 0x2BA01477 >0x0D TIF> >0x28 TIF> >0x0D TIF> >0x28 TIF> >0x0D TIF> >0x28 TIF> >0x0D TIF> >0x28 TIF> >0x0D TIF> >0x21 TIF> >0x0D TIF> >0x28 TIF>Scanning AP map to find all available APs >0x0D TIF> >0x28 TIF> >0x0D TIF> >0x21 TIF> >0x0D TIF> >0x21 TIF> >0x0D TIF> >0x28 TIF> >0x0D TIF> >0x21 TIF> >0x0D TIF> >0x21 TIF>AP[1]: Stopped AP scan as end of AP map has been reachedAP[0]: AHB-AP (IDR: 0x24770011)Iterating through AP map to find AHB-AP to use
 >0x42 TIF> >0x28 TIF> >0x0D TIF> >0x28 TIF> >0x0D TIF> >0x21 TIF> >0x0D TIF> >0x21 TIF> >0x42 TIF> >0x28 TIF> >0x0D TIF> >0x28 TIF> >0x0D TIF> >0x28 TIF> >0x0D TIF> >0x21 TIF> >0x0D TIF> >0x21 TIF>AP[0]: Core foundAP[0]: AHB-AP ROM base: 0xE00FF000 >0x0D TIF> >0x28 TIF> >0x0D TIF> >0x28 TIF> >0x0D TIF> >0x28 TIF> >0x0D TIF> >0x21 TIF> >0x0D TIF> >0x21 TIF>CPUID register: 0x410FC241. Implementer code: 0x41 (ARM)Found Cortex-M4 r0p1, Little endian. -- Max. mem block: 0x00010D68
 -- CPU_ReadMem(4 bytes @ 0xE000EDF0) -- CPU_WriteMem(4 bytes @ 0xE000EDF0) -- CPU_ReadMem(4 bytes @ 0xE0002000)FPUnit: 6 code (BP) slots and 2 literal slots -- CPU_ReadMem(4 bytes @ 0xE000EDFC) -- CPU_WriteMem(4 bytes @ 0xE000EDFC) -- CPU_ReadMem(4 bytes @ 0xE0001000) -- CPU_WriteMem(4 bytes @ 0xE0001000) -- CPU_ReadMem(4 bytes @ 0xE000ED88) -- CPU_WriteMem(4 bytes @ 0xE000ED88) -- CPU_ReadMem(4 bytes @ 0xE000ED88) -- CPU_WriteMem(4 bytes @ 0xE000ED88)CoreSight components:ROMTbl[0] @ E00FF000
 -- CPU_ReadMem(16 bytes @ 0xE00FF000) -- CPU_ReadMem(16 bytes @ 0xE000EFF0) -- CPU_ReadMem(16 bytes @ 0xE000EFE0)ROMTbl[0][0]: E000E000, CID: B105E00D, PID: 000BB00C SCS-M7 -- CPU_ReadMem(16 bytes @ 0xE0001FF0) -- CPU_ReadMem(16 bytes @ 0xE0001FE0)ROMTbl[0][1]: E0001000, CID: B105E00D, PID: 003BB002 DWT -- CPU_ReadMem(16 bytes @ 0xE0002FF0) -- CPU_ReadMem(16 bytes @ 0xE0002FE0)ROMTbl[0][2]: E0002000, CID: B105E00D, PID: 002BB003 FPB -- CPU_ReadMem(16 bytes @ 0xE0000FF0)
 -- CPU_ReadMem(16 bytes @ 0xE0000FE0)ROMTbl[0][3]: E0000000, CID: B105E00D, PID: 003BB001 ITM -- CPU_ReadMem(16 bytes @ 0xE00FF010) -- CPU_ReadMem(16 bytes @ 0xE0040FF0) -- CPU_ReadMem(16 bytes @ 0xE0040FE0)ROMTbl[0][4]: E0040000, CID: B105900D, PID: 000BB9A1 TPIU -- CPU_ReadMem(16 bytes @ 0xE0041FF0) -- CPU_ReadMem(16 bytes @ 0xE0041FE0)ROMTbl[0][5]: E0041000, CID: B105900D, PID: 000BB925 ETM >0x0D TIF> >0x21 TIF>  returns 0x2BA01477 (0120ms, 38304ms total)
T37AC 13154:298 JLINK_GetDLLVersion()  returns 64600 (0000ms, 38304ms total)
T37AC 13154:298 JLINK_CORE_GetFound()  returns 0xE0000FF (0000ms, 38304ms total)
T37AC 13154:298 JLINK_GetDebugInfo(0x100 = JLINKARM_ROM_TABLE_ADDR_INDEX) -- Value=0xE00FF000  returns 0x00 (0000ms, 38304ms total)
T37AC 13154:298 JLINK_GetDebugInfo(0x100 = JLINKARM_ROM_TABLE_ADDR_INDEX) -- Value=0xE00FF000  returns 0x00 (0000ms, 38304ms total)
T37AC 13154:298 JLINK_GetDebugInfo(0x101 = JLINKARM_DEBUG_INFO_ETM_ADDR_INDEX) -- Value=0xE0041000  returns 0x00 (0000ms, 38304ms total)
T37AC 13154:298 JLINK_ReadMemEx(0xE0041FD0, 0x0020 Bytes, ..., Flags = 0x02000004) -- CPU_ReadMem(32 bytes @ 0xE0041FD0) - Data: 04 00 00 00 00 00 00 00 00 00 00 00 00 00 00 00 ...  returns 0x20 (0001ms, 38305ms total)
T37AC 13154:299 JLINK_GetDebugInfo(0x102 = JLINKARM_DEBUG_INFO_MTB_ADDR_INDEX) -- Value=0x00000000  returns 0x00 (0000ms, 38305ms total)
T37AC 13154:299 JLINK_GetDebugInfo(0x103 = JLINKARM_DEBUG_INFO_TPIU_ADDR_INDEX) -- Value=0xE0040000  returns 0x00 (0000ms, 38305ms total)
T37AC 13154:299 JLINK_GetDebugInfo(0x104 = JLINKARM_DEBUG_INFO_ITM_ADDR_INDEX) -- Value=0xE0000000  returns 0x00 (0000ms, 38305ms total)
T37AC 13154:299 JLINK_GetDebugInfo(0x105 = JLINKARM_DEBUG_INFO_DWT_ADDR_INDEX) -- Value=0xE0001000  returns 0x00 (0000ms, 38305ms total)
T37AC 13154:299 JLINK_GetDebugInfo(0x106 = JLINKARM_DEBUG_INFO_FPB_ADDR_INDEX) -- Value=0xE0002000  returns 0x00 (0000ms, 38305ms total)
T37AC 13154:299 JLINK_GetDebugInfo(0x107 = JLINKARM_DEBUG_INFO_NVIC_ADDR_INDEX) -- Value=0xE000E000  returns 0x00 (0000ms, 38305ms total)
T37AC 13154:299 JLINK_GetDebugInfo(0x10C = JLINKARM_DEBUG_INFO_DBG_ADDR_INDEX) -- Value=0xE000EDF0  returns 0x00 (0000ms, 38305ms total)
T37AC 13154:299 JLINK_GetDebugInfo(0x01 = Unknown) -- Value=0x00000001  returns 0x00 (0000ms, 38305ms total)
T37AC 13154:299 JLINK_ReadMemU32(0xE000ED00, 0x0001 Items, ...) -- CPU_ReadMem(4 bytes @ 0xE000ED00) - Data: 41 C2 0F 41  returns 1 (0000ms, 38305ms total)
T37AC 13154:299 JLINK_GetDebugInfo(0x10F = JLINKARM_DEBUG_INFO_HAS_CORTEX_M_SECURITY_EXT_INDEX) -- Value=0x00000000  returns 0x00 (0000ms, 38305ms total)
T37AC 13154:299 JLINK_SetResetType(JLINKARM_CM3_RESET_TYPE_NORMAL)  returns JLINKARM_CM3_RESET_TYPE_NORMAL (0000ms, 38305ms total)
T37AC 13154:299 JLINK_Reset() -- CPU is running -- CPU_WriteMem(4 bytes @ 0xE000EDF0) -- CPU is running -- CPU_WriteMem(4 bytes @ 0xE000EDFC)Reset: Halt core after reset via DEMCR.VC_CORERESET. >0x35 TIF>Reset: Reset device via AIRCR.SYSRESETREQ. -- CPU is running -- CPU_WriteMem(4 bytes @ 0xE000ED0C) >0x0D TIF> >0x28 TIF> -- CPU_ReadMem(4 bytes @ 0xE000EDF0) -- CPU_ReadMem(4 bytes @ 0xE000EDF0) -- CPU is running -- CPU_WriteMem(4 bytes @ 0xE000EDF0) -- CPU is running
 -- CPU_WriteMem(4 bytes @ 0xE000EDFC) -- CPU_ReadMem(4 bytes @ 0xE000EDF0) -- CPU_WriteMem(4 bytes @ 0xE0002000) -- CPU_ReadMem(4 bytes @ 0xE000EDFC) -- CPU_ReadMem(4 bytes @ 0xE0001000) (0064ms, 38369ms total)
T37AC 13154:363 JLINK_ReadReg(R15 (PC))  returns 0x080002AC (0000ms, 38369ms total)
T37AC 13154:363 JLINK_ReadReg(XPSR)  returns 0x01000000 (0000ms, 38369ms total)
T37AC 13154:363 JLINK_Halt()  returns 0x00 (0000ms, 38369ms total)
T37AC 13154:363 JLINK_ReadMemU32(0xE000EDF0, 0x0001 Items, ...) -- CPU_ReadMem(4 bytes @ 0xE000EDF0) - Data: 03 00 03 00  returns 1 (0000ms, 38369ms total)
T37AC 13154:363 JLINK_WriteU32(0xE000EDF0, 0xA05F0003) -- CPU_WriteMem(4 bytes @ 0xE000EDF0)  returns 0 (0000ms, 38369ms total)
T37AC 13154:363 JLINK_WriteU32(0xE000EDFC, 0x01000000) -- CPU_WriteMem(4 bytes @ 0xE000EDFC)  returns 0 (0001ms, 38370ms total)
T37AC 13154:364 JLINK_GetHWStatus(...)  returns 0x00 (0000ms, 38370ms total)
T37AC 13154:364 JLINK_GetNumBPUnits(Type = 0xFFFFFF00)  returns 0x06 (0000ms, 38370ms total)
T37AC 13154:364 JLINK_GetNumBPUnits(Type = 0xF0)  returns 0x2000 (0000ms, 38370ms total)
T37AC 13154:364 JLINK_GetNumWPUnits()  returns 0x04 (0000ms, 38370ms total)
T37AC 13154:364 JLINK_GetSpeed()  returns 0xFA0 (0000ms, 38370ms total)
T37AC 13154:364 JLINK_ReadMemU32(0xE000E004, 0x0001 Items, ...) -- CPU_ReadMem(4 bytes @ 0xE000E004) - Data: 03 00 00 00  returns 1 (0000ms, 38370ms total)
T37AC 13154:364 JLINK_ReadMemU32(0xE000E004, 0x0001 Items, ...) -- CPU_ReadMem(4 bytes @ 0xE000E004) - Data: 03 00 00 00  returns 1 (0000ms, 38370ms total)
T37AC 13154:364 JLINK_WriteMemEx(0xE0001000, 0x001C Bytes, ..., Flags = 0x02000004) - Data: 01 00 00 00 00 00 00 00 00 00 00 00 00 00 00 00 ... -- CPU_WriteMem(28 bytes @ 0xE0001000)  returns 0x1C (0001ms, 38371ms total)
T37AC 13154:365 JLINK_ReadReg(R15 (PC))  returns 0x080002AC (0000ms, 38371ms total)
T37AC 13154:365 JLINK_ReadReg(XPSR)  returns 0x01000000 (0000ms, 38371ms total)
T37AC 13154:368 JLINK_ReadMemEx(0xE0001004, 0x0004 Bytes, ..., Flags = 0x02000000) - Data: 00 00 00 00  returns 0x04 (0000ms, 38371ms total)
T37AC 13154:462 JLINK_SetResetType(JLINKARM_CM3_RESET_TYPE_NORMAL)  returns JLINKARM_CM3_RESET_TYPE_NORMAL (0000ms, 38371ms total)
T37AC 13154:462 JLINK_Reset() -- CPU_WriteMem(4 bytes @ 0xE000EDF0) -- CPU_WriteMem(4 bytes @ 0xE000EDFC)Reset: Halt core after reset via DEMCR.VC_CORERESET. >0x35 TIF>Reset: Reset device via AIRCR.SYSRESETREQ. -- CPU_WriteMem(4 bytes @ 0xE000ED0C) >0x0D TIF> >0x28 TIF> -- CPU_ReadMem(4 bytes @ 0xE000EDF0) -- CPU_ReadMem(4 bytes @ 0xE000EDF0) -- CPU_WriteMem(4 bytes @ 0xE000EDF0) -- CPU_WriteMem(4 bytes @ 0xE000EDFC) -- CPU_ReadMem(4 bytes @ 0xE000EDF0) -- CPU_WriteMem(4 bytes @ 0xE0002000)
 -- CPU_ReadMem(4 bytes @ 0xE000EDFC) -- CPU_ReadMem(4 bytes @ 0xE0001000) (0064ms, 38435ms total)
T37AC 13154:526 JLINK_ReadReg(R15 (PC))  returns 0x080002AC (0000ms, 38435ms total)
T37AC 13154:526 JLINK_ReadReg(XPSR)  returns 0x01000000 (0000ms, 38435ms total)
T37AC 13154:741 JLINK_ReadMemEx(0x080002AC, 0x003C Bytes, ..., Flags = 0x02000000) -- CPU_ReadMem(60 bytes @ 0x080002AC) - Data: 06 48 80 47 06 48 00 47 FE E7 FE E7 FE E7 FE E7 ...  returns 0x3C (0001ms, 38436ms total)
T37AC 13154:742 JLINK_ReadMemEx(0x080002AC, 0x0002 Bytes, ..., Flags = 0x02000000) -- CPU_ReadMem(2 bytes @ 0x080002AC) - Data: 06 48  returns 0x02 (0000ms, 38436ms total)
T37AC 13154:742 JLINK_ReadMemEx(0x080002AE, 0x0002 Bytes, ..., Flags = 0x02000000) -- CPU_ReadMem(2 bytes @ 0x080002AE) - Data: 80 47  returns 0x02 (0000ms, 38436ms total)
T37AC 13154:742 JLINK_ReadMemEx(0x080002AE, 0x0002 Bytes, ..., Flags = 0x02000000) -- CPU_ReadMem(2 bytes @ 0x080002AE) - Data: 80 47  returns 0x02 (0001ms, 38437ms total)
T37AC 13154:743 JLINK_ReadMemEx(0x080002B0, 0x003C Bytes, ..., Flags = 0x02000000) -- CPU_ReadMem(60 bytes @ 0x080002B0) - Data: 06 48 00 47 FE E7 FE E7 FE E7 FE E7 FE E7 FE E7 ...  returns 0x3C (0000ms, 38437ms total)
T37AC 13154:743 JLINK_ReadMemEx(0x080002B0, 0x0002 Bytes, ..., Flags = 0x02000000) -- CPU_ReadMem(2 bytes @ 0x080002B0) - Data: 06 48  returns 0x02 (0001ms, 38438ms total)
T37AC 13156:422 JLINK_ReadReg(R0)  returns 0x00000000 (0001ms, 38439ms total)
T37AC 13156:423 JLINK_ReadReg(R1)  returns 0x00000000 (0000ms, 38439ms total)
T37AC 13156:423 JLINK_ReadReg(R2)  returns 0x00000000 (0000ms, 38439ms total)
T37AC 13156:423 JLINK_ReadReg(R3)  returns 0x00000000 (0000ms, 38439ms total)
T37AC 13156:423 JLINK_ReadReg(R4)  returns 0x00000000 (0000ms, 38439ms total)
T37AC 13156:423 JLINK_ReadReg(R5)  returns 0x00000000 (0000ms, 38439ms total)
T37AC 13156:423 JLINK_ReadReg(R6)  returns 0x00000000 (0000ms, 38439ms total)
T37AC 13156:423 JLINK_ReadReg(R7)  returns 0x00000000 (0000ms, 38439ms total)
T37AC 13156:423 JLINK_ReadReg(R8)  returns 0x00000000 (0000ms, 38439ms total)
T37AC 13156:423 JLINK_ReadReg(R9)  returns 0x00000000 (0000ms, 38439ms total)
T37AC 13156:423 JLINK_ReadReg(R10)  returns 0x00000000 (0000ms, 38439ms total)
T37AC 13156:423 JLINK_ReadReg(R11)  returns 0x00000000 (0000ms, 38439ms total)
T37AC 13156:423 JLINK_ReadReg(R12)  returns 0x00000000 (0000ms, 38439ms total)
T37AC 13156:423 JLINK_ReadReg(R13 (SP))  returns 0x20001B10 (0000ms, 38439ms total)
T37AC 13156:423 JLINK_ReadReg(R14)  returns 0xFFFFFFFF (0000ms, 38439ms total)
T37AC 13156:423 JLINK_ReadReg(R15 (PC))  returns 0x080002AC (0000ms, 38439ms total)
T37AC 13156:423 JLINK_ReadReg(XPSR)  returns 0x01000000 (0000ms, 38439ms total)
T37AC 13156:423 JLINK_ReadReg(MSP)  returns 0x20001B10 (0000ms, 38439ms total)
T37AC 13156:423 JLINK_ReadReg(PSP)  returns 0x00000000 (0000ms, 38439ms total)
T37AC 13156:423 JLINK_ReadReg(CFBP)  returns 0x00000000 (0000ms, 38439ms total)
T37AC 13156:423 JLINK_ReadReg(FPSCR)  returns 0x00000000 (0003ms, 38442ms total)
T37AC 13156:426 JLINK_ReadReg(FPS0)  returns 0x00000000 (0000ms, 38442ms total)
T37AC 13156:426 JLINK_ReadReg(FPS1)  returns 0x00000000 (0000ms, 38442ms total)
T37AC 13156:426 JLINK_ReadReg(FPS2)  returns 0x00000000 (0000ms, 38442ms total)
T37AC 13156:426 JLINK_ReadReg(FPS3)  returns 0x00000000 (0000ms, 38442ms total)
T37AC 13156:426 JLINK_ReadReg(FPS4)  returns 0x00000000 (0000ms, 38442ms total)
T37AC 13156:426 JLINK_ReadReg(FPS5)  returns 0x00000000 (0000ms, 38442ms total)
T37AC 13156:426 JLINK_ReadReg(FPS6)  returns 0x00000000 (0000ms, 38442ms total)
T37AC 13156:426 JLINK_ReadReg(FPS7)  returns 0x00000000 (0000ms, 38442ms total)
T37AC 13156:426 JLINK_ReadReg(FPS8)  returns 0x00000000 (0000ms, 38442ms total)
T37AC 13156:426 JLINK_ReadReg(FPS9)  returns 0x00000000 (0000ms, 38442ms total)
T37AC 13156:426 JLINK_ReadReg(FPS10)  returns 0x00000000 (0000ms, 38442ms total)
T37AC 13156:426 JLINK_ReadReg(FPS11)  returns 0x00000000 (0000ms, 38442ms total)
T37AC 13156:426 JLINK_ReadReg(FPS12)  returns 0x00000000 (0000ms, 38442ms total)
T37AC 13156:426 JLINK_ReadReg(FPS13)  returns 0x00000000 (0000ms, 38442ms total)
T37AC 13156:426 JLINK_ReadReg(FPS14)  returns 0x00000000 (0000ms, 38442ms total)
T37AC 13156:426 JLINK_ReadReg(FPS15)  returns 0x00000000 (0000ms, 38442ms total)
T37AC 13156:426 JLINK_ReadReg(FPS16)  returns 0x00000000 (0000ms, 38442ms total)
T37AC 13156:426 JLINK_ReadReg(FPS17)  returns 0x00000000 (0000ms, 38442ms total)
T37AC 13156:426 JLINK_ReadReg(FPS18)  returns 0x00000000 (0000ms, 38442ms total)
T37AC 13156:426 JLINK_ReadReg(FPS19)  returns 0x00000000 (0000ms, 38442ms total)
T37AC 13156:426 JLINK_ReadReg(FPS20)  returns 0x00000000 (0000ms, 38442ms total)
T37AC 13156:426 JLINK_ReadReg(FPS21)  returns 0x00000000 (0000ms, 38442ms total)
T37AC 13156:426 JLINK_ReadReg(FPS22)  returns 0x00000000 (0000ms, 38442ms total)
T37AC 13156:426 JLINK_ReadReg(FPS23)  returns 0x00000000 (0000ms, 38442ms total)
T37AC 13156:426 JLINK_ReadReg(FPS24)  returns 0x00000000 (0000ms, 38442ms total)
T37AC 13156:426 JLINK_ReadReg(FPS25)  returns 0x00000000 (0000ms, 38442ms total)
T37AC 13156:426 JLINK_ReadReg(FPS26)  returns 0x00000000 (0000ms, 38442ms total)
T37AC 13156:426 JLINK_ReadReg(FPS27)  returns 0x00000000 (0000ms, 38442ms total)
T37AC 13156:426 JLINK_ReadReg(FPS28)  returns 0x00000000 (0000ms, 38442ms total)
T37AC 13156:426 JLINK_ReadReg(FPS29)  returns 0x00000000 (0000ms, 38442ms total)
T37AC 13156:426 JLINK_ReadReg(FPS30)  returns 0x00000000 (0000ms, 38442ms total)
T37AC 13156:426 JLINK_ReadReg(FPS31)  returns 0x00000000 (0000ms, 38442ms total)
T37AC 13156:426 JLINK_ReadMemEx(0x2000000C, 0x0004 Bytes, ..., Flags = 0x02000000) -- CPU_ReadMem(4 bytes @ 0x2000000C) - Data: 00 00 00 00  returns 0x04 (0001ms, 38443ms total)
T37AC 13156:435 JLINK_ReadMemEx(0x2000000C, 0x0004 Bytes, ..., Flags = 0x02000000) -- CPU_ReadMem(4 bytes @ 0x2000000C) - Data: 00 00 00 00  returns 0x04 (0000ms, 38443ms total)
T37AC 13156:435 JLINK_ReadMemEx(0x2000000C, 0x0004 Bytes, ..., Flags = 0x02000000) -- CPU_ReadMem(4 bytes @ 0x2000000C) - Data: 00 00 00 00  returns 0x04 (0001ms, 38444ms total)
T37AC 13156:441 JLINK_ReadMemEx(0x20000002, 0x0001 Bytes, ..., Flags = 0x02000000) -- CPU_ReadMem(1 bytes @ 0x20000002) - Data: 01  returns 0x01 (0000ms, 38444ms total)
T37AC 13156:442 JLINK_ReadMemEx(0x20000002, 0x0001 Bytes, ..., Flags = 0x02000000) -- CPU_ReadMem(1 bytes @ 0x20000002) - Data: 01  returns 0x01 (0000ms, 38444ms total)
T37AC 13156:442 JLINK_ReadMemEx(0x20000002, 0x0001 Bytes, ..., Flags = 0x02000000) -- CPU_ReadMem(1 bytes @ 0x20000002) - Data: 01  returns 0x01 (0000ms, 38444ms total)
T37AC 13156:447 JLINK_ReadMemEx(0x20000030, 0x0004 Bytes, ..., Flags = 0x02000000) -- CPU_ReadMem(4 bytes @ 0x20000030) - Data: 9A 99 AB 3C  returns 0x04 (0000ms, 38444ms total)
T37AC 13156:447 JLINK_ReadMemEx(0x20000030, 0x0004 Bytes, ..., Flags = 0x02000000) -- CPU_ReadMem(4 bytes @ 0x20000030) - Data: 9A 99 AB 3C  returns 0x04 (0001ms, 38445ms total)
T37AC 13156:448 JLINK_ReadMemEx(0x20000030, 0x0004 Bytes, ..., Flags = 0x02000000) -- CPU_ReadMem(4 bytes @ 0x20000030) - Data: 9A 99 AB 3C  returns 0x04 (0000ms, 38445ms total)
T3044 13156:501 JLINK_ReadMemEx(0x080002AC, 0x0002 Bytes, ..., Flags = 0x02000000) -- CPU_ReadMem(2 bytes @ 0x080002AC) - Data: 06 48  returns 0x02 (0000ms, 38445ms total)
T3044 13156:501 JLINK_SetBPEx(Addr = 0x080034A4, Type = 0xFFFFFFF2)  returns 0x00000001 (0000ms, 38445ms total)
T3044 13156:501 JLINK_Go() -- CPU_WriteMem(4 bytes @ 0xE0002000) -- CPU_ReadMem(4 bytes @ 0xE0001000) -- CPU_WriteMem(4 bytes @ 0xE0002008) -- CPU_WriteMem(4 bytes @ 0xE000200C) -- CPU_WriteMem(4 bytes @ 0xE0002010) -- CPU_WriteMem(4 bytes @ 0xE0002014) -- CPU_WriteMem(4 bytes @ 0xE0002018) -- CPU_WriteMem(4 bytes @ 0xE000201C) -- CPU_WriteMem(4 bytes @ 0xE0001004) (0002ms, 38447ms total)
T3044 13156:605 JLINK_IsHalted()  returns TRUE (0001ms, 38448ms total)
T3044 13156:607 JLINK_Halt()  returns 0x00 (0000ms, 38447ms total)
T3044 13156:607 JLINK_IsHalted()  returns TRUE (0000ms, 38447ms total)
T3044 13156:607 JLINK_IsHalted()  returns TRUE (0000ms, 38447ms total)
T3044 13156:607 JLINK_IsHalted()  returns TRUE (0000ms, 38447ms total)
T3044 13156:607 JLINK_ReadReg(R15 (PC))  returns 0x080034A4 (0000ms, 38447ms total)
T3044 13156:607 JLINK_ReadReg(XPSR)  returns 0x61000000 (0000ms, 38447ms total)
T3044 13156:607 JLINK_ClrBPEx(BPHandle = 0x00000001)  returns 0x00 (0000ms, 38447ms total)
T3044 13156:607 JLINK_ReadMemU32(0xE000ED30, 0x0001 Items, ...) -- CPU_ReadMem(4 bytes @ 0xE000ED30) - Data: 02 00 00 00  returns 1 (0000ms, 38447ms total)
T3044 13156:607 JLINK_ReadMemU32(0xE0001028, 0x0001 Items, ...) -- CPU_ReadMem(4 bytes @ 0xE0001028) - Data: 00 00 00 00  returns 1 (0000ms, 38447ms total)
T3044 13156:607 JLINK_ReadMemU32(0xE0001038, 0x0001 Items, ...) -- CPU_ReadMem(4 bytes @ 0xE0001038) - Data: 00 02 00 00  returns 1 (0001ms, 38448ms total)
T3044 13156:608 JLINK_ReadMemU32(0xE0001048, 0x0001 Items, ...) -- CPU_ReadMem(4 bytes @ 0xE0001048) - Data: 00 00 00 00  returns 1 (0000ms, 38448ms total)
T3044 13156:608 JLINK_ReadMemU32(0xE0001058, 0x0001 Items, ...) -- CPU_ReadMem(4 bytes @ 0xE0001058) - Data: 00 00 00 00  returns 1 (0001ms, 38449ms total)
T3044 13156:609 JLINK_ReadReg(R0)  returns 0x080034A5 (0000ms, 38449ms total)
T3044 13156:609 JLINK_ReadReg(R1)  returns 0x20001B10 (0000ms, 38449ms total)
T3044 13156:609 JLINK_ReadReg(R2)  returns 0x00000000 (0000ms, 38449ms total)
T3044 13156:609 JLINK_ReadReg(R3)  returns 0x08003273 (0000ms, 38449ms total)
T3044 13156:609 JLINK_ReadReg(R4)  returns 0x08004DB8 (0000ms, 38449ms total)
T3044 13156:609 JLINK_ReadReg(R5)  returns 0x08004DB8 (0000ms, 38449ms total)
T3044 13156:609 JLINK_ReadReg(R6)  returns 0x00000000 (0000ms, 38449ms total)
T3044 13156:609 JLINK_ReadReg(R7)  returns 0x00000000 (0000ms, 38449ms total)
T3044 13156:609 JLINK_ReadReg(R8)  returns 0x00000000 (0000ms, 38449ms total)
T3044 13156:609 JLINK_ReadReg(R9)  returns 0x00000000 (0000ms, 38449ms total)
T3044 13156:609 JLINK_ReadReg(R10)  returns 0x00000000 (0000ms, 38449ms total)
T3044 13156:609 JLINK_ReadReg(R11)  returns 0x00000000 (0000ms, 38449ms total)
T3044 13156:609 JLINK_ReadReg(R12)  returns 0x00000000 (0000ms, 38449ms total)
T3044 13156:609 JLINK_ReadReg(R13 (SP))  returns 0x20001B10 (0000ms, 38449ms total)
T3044 13156:609 JLINK_ReadReg(R14)  returns 0x08000625 (0000ms, 38449ms total)
T3044 13156:609 JLINK_ReadReg(R15 (PC))  returns 0x080034A4 (0000ms, 38449ms total)
T3044 13156:609 JLINK_ReadReg(XPSR)  returns 0x61000000 (0000ms, 38449ms total)
T3044 13156:609 JLINK_ReadReg(MSP)  returns 0x20001B10 (0000ms, 38449ms total)
T3044 13156:609 JLINK_ReadReg(PSP)  returns 0x00000000 (0000ms, 38449ms total)
T3044 13156:609 JLINK_ReadReg(CFBP)  returns 0x00000000 (0000ms, 38449ms total)
T3044 13156:609 JLINK_ReadReg(FPSCR)  returns 0x00000000 (0003ms, 38452ms total)
T3044 13156:612 JLINK_ReadReg(FPS0)  returns 0x00000000 (0000ms, 38452ms total)
T3044 13156:612 JLINK_ReadReg(FPS1)  returns 0x00000000 (0000ms, 38452ms total)
T3044 13156:612 JLINK_ReadReg(FPS2)  returns 0x00000000 (0000ms, 38452ms total)
T3044 13156:612 JLINK_ReadReg(FPS3)  returns 0x00000000 (0000ms, 38452ms total)
T3044 13156:612 JLINK_ReadReg(FPS4)  returns 0x00000000 (0000ms, 38452ms total)
T3044 13156:612 JLINK_ReadReg(FPS5)  returns 0x00000000 (0000ms, 38452ms total)
T3044 13156:612 JLINK_ReadReg(FPS6)  returns 0x00000000 (0000ms, 38452ms total)
T3044 13156:612 JLINK_ReadReg(FPS7)  returns 0x00000000 (0000ms, 38452ms total)
T3044 13156:612 JLINK_ReadReg(FPS8)  returns 0x00000000 (0000ms, 38452ms total)
T3044 13156:612 JLINK_ReadReg(FPS9)  returns 0x00000000 (0000ms, 38452ms total)
T3044 13156:612 JLINK_ReadReg(FPS10)  returns 0x00000000 (0000ms, 38452ms total)
T3044 13156:612 JLINK_ReadReg(FPS11)  returns 0x00000000 (0000ms, 38452ms total)
T3044 13156:612 JLINK_ReadReg(FPS12)  returns 0x00000000 (0000ms, 38452ms total)
T3044 13156:612 JLINK_ReadReg(FPS13)  returns 0x00000000 (0000ms, 38452ms total)
T3044 13156:612 JLINK_ReadReg(FPS14)  returns 0x00000000 (0000ms, 38452ms total)
T3044 13156:612 JLINK_ReadReg(FPS15)  returns 0x00000000 (0000ms, 38452ms total)
T3044 13156:612 JLINK_ReadReg(FPS16)  returns 0x00000000 (0000ms, 38452ms total)
T3044 13156:612 JLINK_ReadReg(FPS17)  returns 0x00000000 (0000ms, 38452ms total)
T3044 13156:612 JLINK_ReadReg(FPS18)  returns 0x00000000 (0000ms, 38452ms total)
T3044 13156:612 JLINK_ReadReg(FPS19)  returns 0x00000000 (0001ms, 38453ms total)
T3044 13156:613 JLINK_ReadReg(FPS20)  returns 0x00000000 (0000ms, 38453ms total)
T3044 13156:613 JLINK_ReadReg(FPS21)  returns 0x00000000 (0000ms, 38453ms total)
T3044 13156:613 JLINK_ReadReg(FPS22)  returns 0x00000000 (0000ms, 38453ms total)
T3044 13156:613 JLINK_ReadReg(FPS23)  returns 0x00000000 (0000ms, 38453ms total)
T3044 13156:613 JLINK_ReadReg(FPS24)  returns 0x00000000 (0000ms, 38453ms total)
T3044 13156:613 JLINK_ReadReg(FPS25)  returns 0x00000000 (0000ms, 38453ms total)
T3044 13156:613 JLINK_ReadReg(FPS26)  returns 0x00000000 (0000ms, 38453ms total)
T3044 13156:613 JLINK_ReadReg(FPS27)  returns 0x00000000 (0000ms, 38453ms total)
T3044 13156:613 JLINK_ReadReg(FPS28)  returns 0x00000000 (0000ms, 38453ms total)
T3044 13156:613 JLINK_ReadReg(FPS29)  returns 0x00000000 (0000ms, 38453ms total)
T3044 13156:613 JLINK_ReadReg(FPS30)  returns 0x00000000 (0000ms, 38453ms total)
T3044 13156:613 JLINK_ReadReg(FPS31)  returns 0x00000000 (0000ms, 38453ms total)
T37AC 13156:615 JLINK_ReadMemU32(0xE0001004, 0x0001 Items, ...) -- CPU_ReadMem(4 bytes @ 0xE0001004) - Data: 91 29 00 00  returns 1 (0001ms, 38454ms total)
T37AC 13156:616 JLINK_ReadMemEx(0x2000000C, 0x0004 Bytes, ..., Flags = 0x02000000) -- CPU_ReadMem(4 bytes @ 0x2000000C) - Data: 00 00 00 00  returns 0x04 (0001ms, 38455ms total)
T37AC 13156:617 JLINK_ReadMemEx(0x20000002, 0x0001 Bytes, ..., Flags = 0x02000000) -- CPU_ReadMem(1 bytes @ 0x20000002) - Data: 00  returns 0x01 (0000ms, 38455ms total)
T37AC 13156:618 JLINK_ReadMemEx(0x20000030, 0x0004 Bytes, ..., Flags = 0x02000000) -- CPU_ReadMem(4 bytes @ 0x20000030) - Data: 00 00 00 00  returns 0x04 (0000ms, 38455ms total)
T37AC 13159:621 JLINK_ReadMemEx(0x08002D72, 0x0002 Bytes, ..., Flags = 0x02000000) -- CPU_ReadMem(64 bytes @ 0x08002D40) -- Updating DA cache (64 bytes @ 0x08002D40) -- Read from DA cache (2 bytes @ 0x08002D72) - Data: 01 21  returns 0x02 (0001ms, 38456ms total)
T37AC 13159:622 JLINK_ReadMemEx(0x08002D74, 0x003C Bytes, ..., Flags = 0x02000000) -- CPU_ReadMem(64 bytes @ 0x08002D80) -- Updating DA cache (64 bytes @ 0x08002D80) -- Read from DA cache (60 bytes @ 0x08002D74) - Data: F6 E7 00 00 00 00 B4 41 00 00 00 20 10 B5 50 20 ...  returns 0x3C (0000ms, 38456ms total)
T37AC 13159:622 JLINK_ReadMemEx(0x08002D74, 0x0002 Bytes, ..., Flags = 0x02000000) -- Read from DA cache (2 bytes @ 0x08002D74) - Data: F6 E7  returns 0x02 (0000ms, 38456ms total)
T37AC 13159:622 JLINK_ReadMemEx(0x08002D74, 0x003C Bytes, ..., Flags = 0x02000000) -- Read from DA cache (60 bytes @ 0x08002D74) - Data: F6 E7 00 00 00 00 B4 41 00 00 00 20 10 B5 50 20 ...  returns 0x3C (0000ms, 38456ms total)
T37AC 13159:622 JLINK_ReadMemEx(0x08002D74, 0x0002 Bytes, ..., Flags = 0x02000000) -- Read from DA cache (2 bytes @ 0x08002D74) - Data: F6 E7  returns 0x02 (0000ms, 38456ms total)
T37AC 13159:622 JLINK_ReadMemEx(0x08002D76, 0x0002 Bytes, ..., Flags = 0x02000000) -- Read from DA cache (2 bytes @ 0x08002D76) - Data: 00 00  returns 0x02 (0000ms, 38456ms total)
T37AC 13159:622 JLINK_ReadMemEx(0x08002D76, 0x0002 Bytes, ..., Flags = 0x02000000) -- Read from DA cache (2 bytes @ 0x08002D76) - Data: 00 00  returns 0x02 (0000ms, 38456ms total)
T37AC 13159:622 JLINK_ReadMemEx(0x08002D78, 0x003C Bytes, ..., Flags = 0x02000000) -- Read from DA cache (60 bytes @ 0x08002D78) - Data: 00 00 B4 41 00 00 00 20 10 B5 50 20 80 F3 11 88 ...  returns 0x3C (0000ms, 38456ms total)
T37AC 13159:622 JLINK_ReadMemEx(0x08002D78, 0x0002 Bytes, ..., Flags = 0x02000000) -- Read from DA cache (2 bytes @ 0x08002D78) - Data: 00 00  returns 0x02 (0000ms, 38456ms total)
T37AC 13159:622 JLINK_ReadMemEx(0x08002D78, 0x003C Bytes, ..., Flags = 0x02000000) -- Read from DA cache (60 bytes @ 0x08002D78) - Data: 00 00 B4 41 00 00 00 20 10 B5 50 20 80 F3 11 88 ...  returns 0x3C (0001ms, 38457ms total)
T37AC 13159:623 JLINK_ReadMemEx(0x08002D78, 0x0002 Bytes, ..., Flags = 0x02000000) -- Read from DA cache (2 bytes @ 0x08002D78) - Data: 00 00  returns 0x02 (0000ms, 38457ms total)
T37AC 13159:623 JLINK_ReadMemEx(0x08002D7A, 0x0002 Bytes, ..., Flags = 0x02000000) -- Read from DA cache (2 bytes @ 0x08002D7A) - Data: B4 41  returns 0x02 (0000ms, 38457ms total)
T37AC 13165:331 JLINK_ReadMemEx(0x08002B9A, 0x0002 Bytes, ..., Flags = 0x02000000) -- CPU_ReadMem(64 bytes @ 0x08002B80) -- Updating DA cache (64 bytes @ 0x08002B80) -- Read from DA cache (2 bytes @ 0x08002B9A) - Data: DF ED  returns 0x02 (0001ms, 38458ms total)
T37AC 13165:332 JLINK_ReadMemEx(0x08002B9C, 0x003C Bytes, ..., Flags = 0x02000000) -- CPU_ReadMem(64 bytes @ 0x08002BC0) -- Updating DA cache (64 bytes @ 0x08002BC0) -- Read from DA cache (60 bytes @ 0x08002B9C) - Data: 17 0A 9F ED 17 0A 1F E0 DF ED 16 0A 9F ED 16 0A ...  returns 0x3C (0001ms, 38459ms total)
T37AC 13165:333 JLINK_ReadMemEx(0x08002B9C, 0x0002 Bytes, ..., Flags = 0x02000000) -- Read from DA cache (2 bytes @ 0x08002B9C) - Data: 17 0A  returns 0x02 (0000ms, 38459ms total)
T37AC 13165:333 JLINK_ReadMemEx(0x08002B9E, 0x0002 Bytes, ..., Flags = 0x02000000) -- Read from DA cache (2 bytes @ 0x08002B9E) - Data: 9F ED  returns 0x02 (0000ms, 38459ms total)
T37AC 13165:333 JLINK_ReadMemEx(0x08002BA0, 0x003C Bytes, ..., Flags = 0x02000000) -- Read from DA cache (60 bytes @ 0x08002BA0) - Data: 17 0A 1F E0 DF ED 16 0A 9F ED 16 0A 1A E0 DF ED ...  returns 0x3C (0000ms, 38459ms total)
T37AC 13165:333 JLINK_ReadMemEx(0x08002BA0, 0x0002 Bytes, ..., Flags = 0x02000000) -- Read from DA cache (2 bytes @ 0x08002BA0) - Data: 17 0A  returns 0x02 (0000ms, 38459ms total)
T3044 13167:737 JLINK_ReadMemEx(0x080034A4, 0x0002 Bytes, ..., Flags = 0x02000000) -- CPU_ReadMem(64 bytes @ 0x08003480) -- Updating DA cache (64 bytes @ 0x08003480) -- Read from DA cache (2 bytes @ 0x080034A4) - Data: FD F7  returns 0x02 (0001ms, 38460ms total)
T3044 13167:738 JLINK_SetBPEx(Addr = 0x08002B9A, Type = 0xFFFFFFF2)  returns 0x00000002 (0000ms, 38460ms total)
T3044 13167:738 JLINK_Go() -- CPU_WriteMem(4 bytes @ 0xE0002000) -- CPU_ReadMem(4 bytes @ 0xE0001000) -- CPU_WriteMem(4 bytes @ 0xE0002008) (0001ms, 38461ms total)
T3044 13167:840 JLINK_IsHalted()  returns TRUE (0002ms, 38463ms total)
T3044 13167:842 JLINK_Halt()  returns 0x00 (0000ms, 38461ms total)
T3044 13167:842 JLINK_IsHalted()  returns TRUE (0000ms, 38461ms total)
T3044 13167:842 JLINK_IsHalted()  returns TRUE (0000ms, 38461ms total)
T3044 13167:842 JLINK_IsHalted()  returns TRUE (0000ms, 38461ms total)
T3044 13167:842 JLINK_ReadReg(R15 (PC))  returns 0x08002B9A (0000ms, 38461ms total)
T3044 13167:842 JLINK_ReadReg(XPSR)  returns 0x61000000 (0000ms, 38461ms total)
T3044 13167:842 JLINK_ClrBPEx(BPHandle = 0x00000002)  returns 0x00 (0000ms, 38461ms total)
T3044 13167:842 JLINK_ReadMemU32(0xE000ED30, 0x0001 Items, ...) -- CPU_ReadMem(4 bytes @ 0xE000ED30) - Data: 02 00 00 00  returns 1 (0000ms, 38461ms total)
T3044 13167:842 JLINK_ReadMemU32(0xE0001028, 0x0001 Items, ...) -- CPU_ReadMem(4 bytes @ 0xE0001028) - Data: 00 00 00 00  returns 1 (0001ms, 38462ms total)
T3044 13167:843 JLINK_ReadMemU32(0xE0001038, 0x0001 Items, ...) -- CPU_ReadMem(4 bytes @ 0xE0001038) - Data: 00 02 00 00  returns 1 (0000ms, 38462ms total)
T3044 13167:843 JLINK_ReadMemU32(0xE0001048, 0x0001 Items, ...) -- CPU_ReadMem(4 bytes @ 0xE0001048) - Data: 00 00 00 00  returns 1 (0000ms, 38462ms total)
T3044 13167:843 JLINK_ReadMemU32(0xE0001058, 0x0001 Items, ...) -- CPU_ReadMem(4 bytes @ 0xE0001058) - Data: 00 00 00 00  returns 1 (0001ms, 38463ms total)
T3044 13167:844 JLINK_ReadReg(R0)  returns 0x48000000 (0000ms, 38463ms total)
T3044 13167:844 JLINK_ReadReg(R1)  returns 0x00000010 (0000ms, 38463ms total)
T3044 13167:844 JLINK_ReadReg(R2)  returns 0x00000001 (0000ms, 38463ms total)
T3044 13167:844 JLINK_ReadReg(R3)  returns 0x00020B5F (0000ms, 38463ms total)
T3044 13167:844 JLINK_ReadReg(R4)  returns 0x00000028 (0000ms, 38463ms total)
T3044 13167:844 JLINK_ReadReg(R5)  returns 0x48000000 (0000ms, 38463ms total)
T3044 13167:844 JLINK_ReadReg(R6)  returns 0x41B40000 (0000ms, 38463ms total)
T3044 13167:844 JLINK_ReadReg(R7)  returns 0x00000000 (0000ms, 38463ms total)
T3044 13167:844 JLINK_ReadReg(R8)  returns 0x00000000 (0000ms, 38463ms total)
T3044 13167:844 JLINK_ReadReg(R9)  returns 0x00000000 (0000ms, 38463ms total)
T3044 13167:844 JLINK_ReadReg(R10)  returns 0x00000000 (0000ms, 38463ms total)
T3044 13167:844 JLINK_ReadReg(R11)  returns 0x00000000 (0000ms, 38463ms total)
T3044 13167:844 JLINK_ReadReg(R12)  returns 0x00000000 (0000ms, 38463ms total)
T3044 13167:844 JLINK_ReadReg(R13 (SP))  returns 0x20001088 (0000ms, 38463ms total)
T3044 13167:844 JLINK_ReadReg(R14)  returns 0x08002B47 (0000ms, 38463ms total)
T3044 13167:844 JLINK_ReadReg(R15 (PC))  returns 0x08002B9A (0000ms, 38463ms total)
T3044 13167:844 JLINK_ReadReg(XPSR)  returns 0x61000000 (0000ms, 38463ms total)
T3044 13167:844 JLINK_ReadReg(MSP)  returns 0x20001AF0 (0000ms, 38463ms total)
T3044 13167:844 JLINK_ReadReg(PSP)  returns 0x20001088 (0000ms, 38463ms total)
T3044 13167:844 JLINK_ReadReg(CFBP)  returns 0x06000000 (0000ms, 38463ms total)
T3044 13167:844 JLINK_ReadReg(FPSCR)  returns 0x80000000 (0003ms, 38466ms total)
T3044 13167:847 JLINK_ReadReg(FPS0)  returns 0x00000000 (0000ms, 38466ms total)
T3044 13167:847 JLINK_ReadReg(FPS1)  returns 0x41400000 (0000ms, 38466ms total)
T3044 13167:847 JLINK_ReadReg(FPS2)  returns 0x00000000 (0000ms, 38466ms total)
T3044 13167:847 JLINK_ReadReg(FPS3)  returns 0x00000000 (0000ms, 38466ms total)
T3044 13167:847 JLINK_ReadReg(FPS4)  returns 0x00000000 (0000ms, 38466ms total)
T3044 13167:847 JLINK_ReadReg(FPS5)  returns 0x00000000 (0000ms, 38466ms total)
T3044 13167:847 JLINK_ReadReg(FPS6)  returns 0x00000000 (0000ms, 38466ms total)
T3044 13167:847 JLINK_ReadReg(FPS7)  returns 0x00000000 (0000ms, 38466ms total)
T3044 13167:847 JLINK_ReadReg(FPS8)  returns 0x00000000 (0000ms, 38466ms total)
T3044 13167:847 JLINK_ReadReg(FPS9)  returns 0x00000000 (0000ms, 38466ms total)
T3044 13167:847 JLINK_ReadReg(FPS10)  returns 0x00000000 (0000ms, 38466ms total)
T3044 13167:847 JLINK_ReadReg(FPS11)  returns 0x00000000 (0000ms, 38466ms total)
T3044 13167:847 JLINK_ReadReg(FPS12)  returns 0x00000000 (0000ms, 38466ms total)
T3044 13167:847 JLINK_ReadReg(FPS13)  returns 0x00000000 (0000ms, 38466ms total)
T3044 13167:847 JLINK_ReadReg(FPS14)  returns 0x00000000 (0000ms, 38466ms total)
T3044 13167:847 JLINK_ReadReg(FPS15)  returns 0x00000000 (0000ms, 38466ms total)
T3044 13167:847 JLINK_ReadReg(FPS16)  returns 0x00000000 (0000ms, 38466ms total)
T3044 13167:847 JLINK_ReadReg(FPS17)  returns 0x00000000 (0000ms, 38466ms total)
T3044 13167:847 JLINK_ReadReg(FPS18)  returns 0x00000000 (0000ms, 38466ms total)
T3044 13167:847 JLINK_ReadReg(FPS19)  returns 0x00000000 (0000ms, 38466ms total)
T3044 13167:847 JLINK_ReadReg(FPS20)  returns 0x00000000 (0000ms, 38466ms total)
T3044 13167:847 JLINK_ReadReg(FPS21)  returns 0x00000000 (0000ms, 38466ms total)
T3044 13167:847 JLINK_ReadReg(FPS22)  returns 0x00000000 (0000ms, 38466ms total)
T3044 13167:847 JLINK_ReadReg(FPS23)  returns 0x00000000 (0000ms, 38466ms total)
T3044 13167:847 JLINK_ReadReg(FPS24)  returns 0x00000000 (0000ms, 38466ms total)
T3044 13167:847 JLINK_ReadReg(FPS25)  returns 0x00000000 (0000ms, 38466ms total)
T3044 13167:847 JLINK_ReadReg(FPS26)  returns 0x00000000 (0000ms, 38466ms total)
T3044 13167:847 JLINK_ReadReg(FPS27)  returns 0x00000000 (0000ms, 38466ms total)
T3044 13167:848 JLINK_ReadReg(FPS28)  returns 0x00000000 (0000ms, 38467ms total)
T3044 13167:848 JLINK_ReadReg(FPS29)  returns 0x00000000 (0000ms, 38467ms total)
T3044 13167:848 JLINK_ReadReg(FPS30)  returns 0x00000000 (0000ms, 38467ms total)
T3044 13167:848 JLINK_ReadReg(FPS31)  returns 0x00000000 (0000ms, 38467ms total)
T37AC 13167:848 JLINK_ReadMemEx(0x20001094, 0x0004 Bytes, ..., Flags = 0x02000000) -- CPU_ReadMem(4 bytes @ 0x20001094) - Data: 6B 2D 00 08  returns 0x04 (0000ms, 38467ms total)
T37AC 13167:848 JLINK_ReadMemEx(0x20001088, 0x0004 Bytes, ..., Flags = 0x02000000) -- CPU_ReadMem(4 bytes @ 0x20001088) - Data: 00 00 00 20  returns 0x04 (0000ms, 38467ms total)
T37AC 13167:848 JLINK_ReadMemEx(0x2000108C, 0x0004 Bytes, ..., Flags = 0x02000000) -- CPU_ReadMem(4 bytes @ 0x2000108C) - Data: 01 00 00 00  returns 0x04 (0001ms, 38468ms total)
T37AC 13167:849 JLINK_ReadMemEx(0x20001090, 0x0004 Bytes, ..., Flags = 0x02000000) -- CPU_ReadMem(4 bytes @ 0x20001090) - Data: 00 00 B4 41  returns 0x04 (0000ms, 38468ms total)
T37AC 13167:849 JLINK_ReadMemEx(0x20001094, 0x0004 Bytes, ..., Flags = 0x02000000) -- CPU_ReadMem(4 bytes @ 0x20001094) - Data: 6B 2D 00 08  returns 0x04 (0000ms, 38468ms total)
T37AC 13167:851 JLINK_ReadMemU32(0xE0001004, 0x0001 Items, ...) -- CPU_ReadMem(4 bytes @ 0xE0001004) - Data: A1 B7 00 00  returns 1 (0000ms, 38468ms total)
T37AC 13167:852 JLINK_ReadMemEx(0x2000000C, 0x0004 Bytes, ..., Flags = 0x02000000) -- CPU_ReadMem(4 bytes @ 0x2000000C) - Data: 00 00 00 00  returns 0x04 (0000ms, 38468ms total)
T37AC 13167:852 JLINK_ReadMemEx(0x20000002, 0x0001 Bytes, ..., Flags = 0x02000000) -- CPU_ReadMem(1 bytes @ 0x20000002) - Data: 01  returns 0x01 (0000ms, 38468ms total)
T37AC 13167:853 JLINK_ReadMemEx(0x20000030, 0x0004 Bytes, ..., Flags = 0x02000000) -- CPU_ReadMem(4 bytes @ 0x20000030) - Data: 00 00 00 00  returns 0x04 (0000ms, 38468ms total)
T37AC 13174:544 JLINK_ReadMemEx(0x20000034, 0x0004 Bytes, ..., Flags = 0x02000000) -- CPU_ReadMem(4 bytes @ 0x20000034) - Data: 00 00 00 00  returns 0x04 (0000ms, 38468ms total)
T37AC 13175:785 JLINK_ReadMemEx(0x08003296, 0x0002 Bytes, ..., Flags = 0x02000000) -- CPU_ReadMem(64 bytes @ 0x08003280) -- Updating DA cache (64 bytes @ 0x08003280) -- Read from DA cache (2 bytes @ 0x08003296) - Data: FF F7  returns 0x02 (0000ms, 38468ms total)
T37AC 13175:785 JLINK_ReadMemEx(0x08003298, 0x003C Bytes, ..., Flags = 0x02000000) -- CPU_ReadMem(64 bytes @ 0x080032C0) -- Updating DA cache (64 bytes @ 0x080032C0) -- Read from DA cache (60 bytes @ 0x08003298) - Data: D7 F9 02 20 00 F0 1E F9 94 ED 03 0A 69 4D BC EE ...  returns 0x3C (0001ms, 38469ms total)
T37AC 13175:786 JLINK_ReadMemEx(0x08003298, 0x0002 Bytes, ..., Flags = 0x02000000) -- Read from DA cache (2 bytes @ 0x08003298) - Data: D7 F9  returns 0x02 (0000ms, 38469ms total)
T37AC 13175:786 JLINK_ReadMemEx(0x0800329A, 0x0002 Bytes, ..., Flags = 0x02000000) -- Read from DA cache (2 bytes @ 0x0800329A) - Data: 02 20  returns 0x02 (0000ms, 38469ms total)
T37AC 13175:786 JLINK_ReadMemEx(0x0800329C, 0x003C Bytes, ..., Flags = 0x02000000) -- Read from DA cache (60 bytes @ 0x0800329C) - Data: 00 F0 1E F9 94 ED 03 0A 69 4D BC EE C0 0A 29 68 ...  returns 0x3C (0000ms, 38469ms total)
T37AC 13175:786 JLINK_ReadMemEx(0x0800329C, 0x0002 Bytes, ..., Flags = 0x02000000) -- Read from DA cache (2 bytes @ 0x0800329C) - Data: 00 F0  returns 0x02 (0000ms, 38469ms total)
T37AC 13175:786 JLINK_ReadMemEx(0x0800329C, 0x003C Bytes, ..., Flags = 0x02000000) -- Read from DA cache (60 bytes @ 0x0800329C) - Data: 00 F0 1E F9 94 ED 03 0A 69 4D BC EE C0 0A 29 68 ...  returns 0x3C (0000ms, 38469ms total)
T37AC 13175:786 JLINK_ReadMemEx(0x0800329C, 0x0002 Bytes, ..., Flags = 0x02000000) -- Read from DA cache (2 bytes @ 0x0800329C) - Data: 00 F0  returns 0x02 (0000ms, 38469ms total)
T37AC 13175:786 JLINK_ReadMemEx(0x0800329E, 0x0002 Bytes, ..., Flags = 0x02000000) -- Read from DA cache (2 bytes @ 0x0800329E) - Data: 1E F9  returns 0x02 (0000ms, 38469ms total)
T37AC 13176:201 JLINK_ReadMemEx(0x0800273A, 0x0002 Bytes, ..., Flags = 0x02000000) -- CPU_ReadMem(64 bytes @ 0x08002700) -- Updating DA cache (64 bytes @ 0x08002700) -- Read from DA cache (2 bytes @ 0x0800273A) - Data: BD E8  returns 0x02 (0000ms, 38469ms total)
T37AC 13176:201 JLINK_ReadMemEx(0x0800273C, 0x003C Bytes, ..., Flags = 0x02000000) -- CPU_ReadMem(64 bytes @ 0x08002740) -- Updating DA cache (64 bytes @ 0x08002740) -- Read from DA cache (60 bytes @ 0x0800273C) - Data: 10 40 46 F2 27 51 00 20 AF F3 00 80 70 B5 06 46 ...  returns 0x3C (0001ms, 38470ms total)
T37AC 13176:202 JLINK_ReadMemEx(0x0800273C, 0x0002 Bytes, ..., Flags = 0x02000000) -- Read from DA cache (2 bytes @ 0x0800273C) - Data: 10 40  returns 0x02 (0000ms, 38470ms total)
T37AC 13176:202 JLINK_ReadMemEx(0x0800273E, 0x0002 Bytes, ..., Flags = 0x02000000) -- Read from DA cache (2 bytes @ 0x0800273E) - Data: 46 F2  returns 0x02 (0000ms, 38470ms total)
T37AC 13176:202 JLINK_ReadMemEx(0x08002740, 0x003C Bytes, ..., Flags = 0x02000000) -- Read from DA cache (60 bytes @ 0x08002740) - Data: 27 51 00 20 AF F3 00 80 70 B5 06 46 0C 0A CD B2 ...  returns 0x3C (0000ms, 38470ms total)
T37AC 13176:202 JLINK_ReadMemEx(0x08002740, 0x0002 Bytes, ..., Flags = 0x02000000) -- Read from DA cache (2 bytes @ 0x08002740) - Data: 27 51  returns 0x02 (0000ms, 38470ms total)
T37AC 13176:202 JLINK_ReadMemEx(0x08002742, 0x0002 Bytes, ..., Flags = 0x02000000) -- Read from DA cache (2 bytes @ 0x08002742) - Data: 00 20  returns 0x02 (0000ms, 38470ms total)
T37AC 13176:202 JLINK_ReadMemEx(0x08002744, 0x003C Bytes, ..., Flags = 0x02000000) -- Read from DA cache (60 bytes @ 0x08002744) - Data: AF F3 00 80 70 B5 06 46 0C 0A CD B2 FF F7 03 FF ...  returns 0x3C (0000ms, 38470ms total)
T37AC 13176:202 JLINK_ReadMemEx(0x08002744, 0x0002 Bytes, ..., Flags = 0x02000000) -- Read from DA cache (2 bytes @ 0x08002744) - Data: AF F3  returns 0x02 (0000ms, 38470ms total)
T37AC 13176:202 JLINK_ReadMemEx(0x08002744, 0x003C Bytes, ..., Flags = 0x02000000) -- Read from DA cache (60 bytes @ 0x08002744) - Data: AF F3 00 80 70 B5 06 46 0C 0A CD B2 FF F7 03 FF ...  returns 0x3C (0000ms, 38470ms total)
T37AC 13176:202 JLINK_ReadMemEx(0x08002744, 0x0002 Bytes, ..., Flags = 0x02000000) -- Read from DA cache (2 bytes @ 0x08002744) - Data: AF F3  returns 0x02 (0000ms, 38470ms total)
T37AC 13176:202 JLINK_ReadMemEx(0x08002746, 0x0002 Bytes, ..., Flags = 0x02000000) -- Read from DA cache (2 bytes @ 0x08002746) - Data: 00 80  returns 0x02 (0000ms, 38470ms total)
T3044 13180:555 JLINK_ReadMemEx(0x08002B9A, 0x0002 Bytes, ..., Flags = 0x02000000) -- CPU_ReadMem(64 bytes @ 0x08002B80) -- Updating DA cache (64 bytes @ 0x08002B80) -- Read from DA cache (2 bytes @ 0x08002B9A) - Data: DF ED  returns 0x02 (0001ms, 38471ms total)
T3044 13180:556 JLINK_SetBPEx(Addr = 0x08003296, Type = 0xFFFFFFF2)  returns 0x00000003 (0000ms, 38471ms total)
T3044 13180:556 JLINK_Go() -- CPU_WriteMem(4 bytes @ 0xE0002000) -- CPU_ReadMem(4 bytes @ 0xE0001000) -- CPU_WriteMem(4 bytes @ 0xE0002008) (0002ms, 38473ms total)
T3044 13180:659 JLINK_IsHalted()  returns FALSE (0000ms, 38473ms total)
T3044 13180:760 JLINK_IsHalted()  returns TRUE (0002ms, 38475ms total)
T3044 13180:762 JLINK_Halt()  returns 0x00 (0000ms, 38473ms total)
T3044 13180:762 JLINK_IsHalted()  returns TRUE (0000ms, 38473ms total)
T3044 13180:762 JLINK_IsHalted()  returns TRUE (0000ms, 38473ms total)
T3044 13180:762 JLINK_IsHalted()  returns TRUE (0000ms, 38473ms total)
T3044 13180:762 JLINK_ReadReg(R15 (PC))  returns 0x08003296 (0000ms, 38473ms total)
T3044 13180:762 JLINK_ReadReg(XPSR)  returns 0x21000000 (0000ms, 38473ms total)
T3044 13180:762 JLINK_ClrBPEx(BPHandle = 0x00000003)  returns 0x00 (0000ms, 38473ms total)
T3044 13180:762 JLINK_ReadMemU32(0xE000ED30, 0x0001 Items, ...) -- CPU_ReadMem(4 bytes @ 0xE000ED30) - Data: 02 00 00 00  returns 1 (0000ms, 38473ms total)
T3044 13180:762 JLINK_ReadMemU32(0xE0001028, 0x0001 Items, ...) -- CPU_ReadMem(4 bytes @ 0xE0001028) - Data: 00 00 00 00  returns 1 (0001ms, 38474ms total)
T3044 13180:763 JLINK_ReadMemU32(0xE0001038, 0x0001 Items, ...) -- CPU_ReadMem(4 bytes @ 0xE0001038) - Data: 00 02 00 00  returns 1 (0000ms, 38474ms total)
T3044 13180:763 JLINK_ReadMemU32(0xE0001048, 0x0001 Items, ...) -- CPU_ReadMem(4 bytes @ 0xE0001048) - Data: 00 00 00 00  returns 1 (0000ms, 38474ms total)
T3044 13180:763 JLINK_ReadMemU32(0xE0001058, 0x0001 Items, ...) -- CPU_ReadMem(4 bytes @ 0xE0001058) - Data: 00 00 00 00  returns 1 (0000ms, 38474ms total)
T3044 13180:764 JLINK_ReadReg(R0)  returns 0x00000033 (0000ms, 38474ms total)
T3044 13180:764 JLINK_ReadReg(R1)  returns 0x00000010 (0000ms, 38474ms total)
T3044 13180:764 JLINK_ReadReg(R2)  returns 0x00000001 (0000ms, 38474ms total)
T3044 13180:764 JLINK_ReadReg(R3)  returns 0x200009C8 (0000ms, 38474ms total)
T3044 13180:764 JLINK_ReadReg(R4)  returns 0x20000000 (0000ms, 38474ms total)
T3044 13180:764 JLINK_ReadReg(R5)  returns 0x00000001 (0000ms, 38474ms total)
T3044 13180:764 JLINK_ReadReg(R6)  returns 0x41B40000 (0000ms, 38474ms total)
T3044 13180:764 JLINK_ReadReg(R7)  returns 0x00000000 (0000ms, 38474ms total)
T3044 13180:764 JLINK_ReadReg(R8)  returns 0x00000000 (0000ms, 38474ms total)
T3044 13180:764 JLINK_ReadReg(R9)  returns 0x00000000 (0000ms, 38474ms total)
T3044 13180:764 JLINK_ReadReg(R10)  returns 0x00000000 (0000ms, 38474ms total)
T3044 13180:764 JLINK_ReadReg(R11)  returns 0x00000000 (0000ms, 38474ms total)
T3044 13180:764 JLINK_ReadReg(R12)  returns 0x00000000 (0000ms, 38474ms total)
T3044 13180:764 JLINK_ReadReg(R13 (SP))  returns 0x20001080 (0000ms, 38474ms total)
T3044 13180:764 JLINK_ReadReg(R14)  returns 0x08002D6B (0000ms, 38474ms total)
T3044 13180:764 JLINK_ReadReg(R15 (PC))  returns 0x08003296 (0000ms, 38474ms total)
T3044 13180:764 JLINK_ReadReg(XPSR)  returns 0x21000000 (0000ms, 38474ms total)
T3044 13180:764 JLINK_ReadReg(MSP)  returns 0x20001AF0 (0000ms, 38474ms total)
T3044 13180:764 JLINK_ReadReg(PSP)  returns 0x20001080 (0000ms, 38474ms total)
T3044 13180:764 JLINK_ReadReg(CFBP)  returns 0x06000000 (0000ms, 38474ms total)
T3044 13180:764 JLINK_ReadReg(FPSCR)  returns 0x80000000 (0003ms, 38477ms total)
T3044 13180:767 JLINK_ReadReg(FPS0)  returns 0x44CF8000 (0000ms, 38477ms total)
T3044 13180:767 JLINK_ReadReg(FPS1)  returns 0x42200000 (0000ms, 38477ms total)
T3044 13180:767 JLINK_ReadReg(FPS2)  returns 0x00000000 (0000ms, 38477ms total)
T3044 13180:767 JLINK_ReadReg(FPS3)  returns 0x00000000 (0000ms, 38477ms total)
T3044 13180:767 JLINK_ReadReg(FPS4)  returns 0x00000000 (0000ms, 38477ms total)
T3044 13180:767 JLINK_ReadReg(FPS5)  returns 0x00000000 (0000ms, 38477ms total)
T3044 13180:767 JLINK_ReadReg(FPS6)  returns 0x00000000 (0000ms, 38477ms total)
T3044 13180:767 JLINK_ReadReg(FPS7)  returns 0x00000000 (0000ms, 38477ms total)
T3044 13180:767 JLINK_ReadReg(FPS8)  returns 0x00000000 (0000ms, 38477ms total)
T3044 13180:767 JLINK_ReadReg(FPS9)  returns 0x00000000 (0000ms, 38477ms total)
T3044 13180:767 JLINK_ReadReg(FPS10)  returns 0x00000000 (0000ms, 38477ms total)
T3044 13180:767 JLINK_ReadReg(FPS11)  returns 0x00000000 (0000ms, 38477ms total)
T3044 13180:767 JLINK_ReadReg(FPS12)  returns 0x00000000 (0000ms, 38477ms total)
T3044 13180:767 JLINK_ReadReg(FPS13)  returns 0x00000000 (0000ms, 38477ms total)
T3044 13180:767 JLINK_ReadReg(FPS14)  returns 0x00000000 (0000ms, 38477ms total)
T3044 13180:767 JLINK_ReadReg(FPS15)  returns 0x00000000 (0000ms, 38477ms total)
T3044 13180:767 JLINK_ReadReg(FPS16)  returns 0x44CF8000 (0000ms, 38477ms total)
T3044 13180:767 JLINK_ReadReg(FPS17)  returns 0x42200000 (0000ms, 38477ms total)
T3044 13180:767 JLINK_ReadReg(FPS18)  returns 0x00000000 (0000ms, 38477ms total)
T3044 13180:767 JLINK_ReadReg(FPS19)  returns 0x00000000 (0000ms, 38477ms total)
T3044 13180:767 JLINK_ReadReg(FPS20)  returns 0x00000000 (0000ms, 38477ms total)
T3044 13180:767 JLINK_ReadReg(FPS21)  returns 0x00000000 (0000ms, 38477ms total)
T3044 13180:767 JLINK_ReadReg(FPS22)  returns 0x00000000 (0000ms, 38477ms total)
T3044 13180:767 JLINK_ReadReg(FPS23)  returns 0x00000000 (0000ms, 38477ms total)
T3044 13180:767 JLINK_ReadReg(FPS24)  returns 0x00000000 (0000ms, 38477ms total)
T3044 13180:767 JLINK_ReadReg(FPS25)  returns 0x00000000 (0000ms, 38477ms total)
T3044 13180:767 JLINK_ReadReg(FPS26)  returns 0x00000000 (0000ms, 38477ms total)
T3044 13180:767 JLINK_ReadReg(FPS27)  returns 0x00000000 (0000ms, 38477ms total)
T3044 13180:767 JLINK_ReadReg(FPS28)  returns 0x00000000 (0000ms, 38477ms total)
T3044 13180:767 JLINK_ReadReg(FPS29)  returns 0x00000000 (0000ms, 38477ms total)
T3044 13180:767 JLINK_ReadReg(FPS30)  returns 0x00000000 (0000ms, 38477ms total)
T3044 13180:767 JLINK_ReadReg(FPS31)  returns 0x00000000 (0000ms, 38477ms total)
T37AC 13180:767 JLINK_ReadMemEx(0x20001094, 0x0004 Bytes, ..., Flags = 0x02000000) -- CPU_ReadMem(4 bytes @ 0x20001094) - Data: 6B 2D 00 08  returns 0x04 (0001ms, 38478ms total)
T37AC 13180:768 JLINK_ReadMemEx(0x20001088, 0x0004 Bytes, ..., Flags = 0x02000000) -- CPU_ReadMem(4 bytes @ 0x20001088) - Data: 00 00 00 20  returns 0x04 (0000ms, 38478ms total)
T37AC 13180:768 JLINK_ReadMemEx(0x2000108C, 0x0004 Bytes, ..., Flags = 0x02000000) -- CPU_ReadMem(4 bytes @ 0x2000108C) - Data: 01 00 00 00  returns 0x04 (0001ms, 38479ms total)
T37AC 13180:769 JLINK_ReadMemEx(0x20001090, 0x0004 Bytes, ..., Flags = 0x02000000) -- CPU_ReadMem(4 bytes @ 0x20001090) - Data: 00 00 B4 41  returns 0x04 (0000ms, 38479ms total)
T37AC 13180:769 JLINK_ReadMemEx(0x20001094, 0x0004 Bytes, ..., Flags = 0x02000000) -- CPU_ReadMem(4 bytes @ 0x20001094) - Data: 6B 2D 00 08  returns 0x04 (0000ms, 38479ms total)
T37AC 13180:771 JLINK_ReadMemU32(0xE0001004, 0x0001 Items, ...) -- CPU_ReadMem(4 bytes @ 0xE0001004) - Data: AD A3 70 00  returns 1 (0000ms, 38479ms total)
T37AC 13180:771 JLINK_ReadMemEx(0x2000000C, 0x0004 Bytes, ..., Flags = 0x02000000) -- CPU_ReadMem(4 bytes @ 0x2000000C) - Data: 00 00 00 00  returns 0x04 (0001ms, 38480ms total)
T37AC 13180:772 JLINK_ReadMemEx(0x20000002, 0x0001 Bytes, ..., Flags = 0x02000000) -- CPU_ReadMem(1 bytes @ 0x20000002) - Data: 01  returns 0x01 (0000ms, 38480ms total)
T37AC 13180:773 JLINK_ReadMemEx(0x20000030, 0x0004 Bytes, ..., Flags = 0x02000000) -- CPU_ReadMem(4 bytes @ 0x20000030) - Data: 00 00 84 3C  returns 0x04 (0000ms, 38480ms total)
T37AC 13184:705 JLINK_ReadMemEx(0x0800264A, 0x0002 Bytes, ..., Flags = 0x02000000) -- CPU_ReadMem(64 bytes @ 0x08002640) -- Updating DA cache (64 bytes @ 0x08002640) -- Read from DA cache (2 bytes @ 0x0800264A) - Data: 00 F0  returns 0x02 (0000ms, 38480ms total)
T37AC 13184:705 JLINK_ReadMemEx(0x0800264C, 0x003C Bytes, ..., Flags = 0x02000000) -- CPU_ReadMem(64 bytes @ 0x08002680) -- Updating DA cache (64 bytes @ 0x08002680) -- Read from DA cache (60 bytes @ 0x0800264C) - Data: 5B F8 0A 4C 20 80 00 F0 17 F8 60 60 00 F0 44 F8 ...  returns 0x3C (0001ms, 38481ms total)
T37AC 13184:706 JLINK_ReadMemEx(0x0800264C, 0x0002 Bytes, ..., Flags = 0x02000000) -- Read from DA cache (2 bytes @ 0x0800264C) - Data: 5B F8  returns 0x02 (0000ms, 38481ms total)
T37AC 13184:706 JLINK_ReadMemEx(0x0800264E, 0x0002 Bytes, ..., Flags = 0x02000000) -- Read from DA cache (2 bytes @ 0x0800264E) - Data: 0A 4C  returns 0x02 (0000ms, 38481ms total)
T37AC 13184:706 JLINK_ReadMemEx(0x08002650, 0x003C Bytes, ..., Flags = 0x02000000) -- Read from DA cache (60 bytes @ 0x08002650) - Data: 20 80 00 F0 17 F8 60 60 00 F0 44 F8 FD F7 CE FE ...  returns 0x3C (0000ms, 38481ms total)
T37AC 13184:706 JLINK_ReadMemEx(0x08002650, 0x0002 Bytes, ..., Flags = 0x02000000) -- Read from DA cache (2 bytes @ 0x08002650) - Data: 20 80  returns 0x02 (0000ms, 38481ms total)
T37AC 13184:706 JLINK_ReadMemEx(0x08002650, 0x003C Bytes, ..., Flags = 0x02000000) -- Read from DA cache (60 bytes @ 0x08002650) - Data: 20 80 00 F0 17 F8 60 60 00 F0 44 F8 FD F7 CE FE ...  returns 0x3C (0000ms, 38481ms total)
T37AC 13184:706 JLINK_ReadMemEx(0x08002650, 0x0002 Bytes, ..., Flags = 0x02000000) -- Read from DA cache (2 bytes @ 0x08002650) - Data: 20 80  returns 0x02 (0000ms, 38481ms total)
